
T0CE8 000:510 SEGGER J-Link V4.54a Log File (0000ms, 0510ms total)
T0CE8 000:510 DLL Compiled: Sep 17 2012 15:58:45 (0000ms, 0510ms total)
T0CE8 000:510 Logging started @ 2012-12-05 15:13 (0000ms, 0510ms total)
T0CE8 000:510 JLINK_SetWarnOutHandler(...) (0001ms, 0511ms total)
T0CE8 000:511 JLINK_OpenEx(...)
Firmware: J-Link ARM Lite V8 compiled Aug 29 2012 15:32:48
Hardware: V8.00
S/N: 228003044  returns O.K. (0028ms, 0539ms total)
T0CE8 000:539 JLINK_SetErrorOutHandler(...) (0000ms, 0539ms total)
T0CE8 000:539 JLINK_ExecCommand("ProjectFile = "C:\Users\Yoli\Desktop\Code\Project\Transmitter\JLinkSettings.ini"", ...)  returns 0x00 (0001ms, 0540ms total)
T0CE8 000:544 JLINK_ExecCommand("Device = ADuCRF101", ...)
                JLINK_ExecCommand("map ram 0x20000000 - 0x20003FFF", ...)  returns 0x00 (0000ms, 0000ms total)
                JLINK_AddMirrorAreaEx(Addr = 0x00000000, Size = 0x00000000) (0000ms, 0000ms total)
              Device "ADUCRF101" selected (128 KB flash, 16 KB RAM).  returns 0x00 (0003ms, 0543ms total)
T0CE8 000:547 JLINK_ExecCommand("DisableConnectionTimeout", ...)  returns 0x00 (0000ms, 0543ms total)
T0CE8 000:547 JLINK_TIF_Select(JLINKARM_TIF_SWD)  returns 0x00 (0009ms, 0552ms total)
T0CE8 000:556 JLINK_SetSpeed(2000) (0001ms, 0553ms total)
T0CE8 000:557 JLINK_GetHardwareVersion()  returns 0x13880 (0000ms, 0553ms total)
T0CE8 000:557 JLINK_GetDLLVersion()  returns 45401 (0000ms, 0553ms total)
T0CE8 000:557 JLINK_GetFirmwareString(...) (0000ms, 0553ms total)
T0CE8 000:562 JLINK_GetDLLVersion()  returns 45401 (0000ms, 0553ms total)
T0CE8 000:562 JLINK_GetCompileDateTime() (0000ms, 0553ms total)
T0CE8 000:564 JLINK_GetFirmwareString(...) (0000ms, 0553ms total)
T0CE8 000:565 JLINK_GetHardwareVersion()  returns 0x13880 (0000ms, 0553ms total)
T0CE8 000:571 JLINK_GetId() >0x108 TIF>Found SWD-DP with ID 0x2BA01477 >0x0D TIF> >0x21 TIF> >0x0D TIF> >0x28 TIF> >0x0D TIF> >0x28 TIF> >0x0D TIF> >0x21 TIF> >0x0D TIF> >0x21 TIF> >0x0D TIF> >0x28 TIF> >0x0D TIF> >0x21 TIF> >0x0D TIF> >0x21 TIF> >0x0D TIF> >0x21 TIF> >0x0D TIF> >0x21 TIF> >0x0D TIF> >0x21 TIF> >0x0D TIF> >0x28 TIF> >0x0D TIF> >0x28 TIF> >0x0D TIF> >0x21 TIF> >0x0D TIF> >0x21 TIF> >0x0D TIF> >0x28 TIF> >0x0D TIF> >0x21 TIF> >0x0D TIF> >0x21 TIF> >0x0D TIF> >0x28 TIF> >0x0D TIF>
 >0x28 TIF> >0x0D TIF> >0x28 TIF> >0x0D TIF> >0x21 TIF> >0x0D TIF> >0x21 TIF> >0x0D TIF> >0x28 TIF> >0x0D TIF> >0x28 TIF> >0x0D TIF> >0x28 TIF> >0x0D TIF> >0x21 TIF> >0x0D TIF> >0x21 TIF> >0x0D TIF> >0x21 TIF> >0x0D TIF> >0x28 TIF> >0x0D TIF> >0x21 TIF> >0x0D TIF> >0x21 TIF> >0x0D TIF> >0x28 TIF> >0x0D TIF> >0x21 TIF> >0x0D TIF> >0x21 TIF>FPUnit: 6 code (BP) slots and 2 literal slots >0x0D TIF> >0x28 TIF> >0x0D TIF> >0x21 TIF> >0x0D TIF> >0x21 TIF> >0x0D TIF> >0x28 TIF> >0x0D TIF> >0x21 TIF> >0x0D TIF>
 >0x21 TIF> >0x0D TIF> >0x28 TIF> >0x0D TIF> >0x21 TIF> >0x0D TIF> >0x21 TIF> >0x0D TIF> >0x28 TIF> >0x0D TIF> >0x21 TIF> >0x0D TIF> >0x21 TIF>Found Cortex-M3 r2p0, Little endian. >0x0D TIF> >0x21 TIF>  returns 0x2BA01477 (0109ms, 0663ms total)
T0CE8 000:681 JLINK_GetDeviceFamily()  returns 3 (0000ms, 0663ms total)
T0CE8 000:682 JLINK_ReadMem (0xE00FFFF0, 0x0010 Bytes, ...) -- CPU is running -- CPU_ReadMem(16 bytes @ 0xE00FFFF0) -- Data:  0D 00 00 00 10 00 00 00 05 00 00 00 B1 00 00 00  returns 0x00 (0003ms, 0666ms total)
T0CE8 000:685 JLINK_ReadMem (0xE00FFFD0, 0x0020 Bytes, ...) -- CPU is running -- CPU_ReadMem(32 bytes @ 0xE00FFFD0) -- Data:  00 00 00 00 00 00 00 00 00 00 00 00 00 00 00 00 ...  returns 0x00 (0001ms, 0667ms total)
T0CE8 000:686 JLINK_ReadMem (0xE00FF000, 0x0018 Bytes, ...) -- CPU is running -- CPU_ReadMem(24 bytes @ 0xE00FF000) -- Data:  03 F0 F0 FF 03 20 F0 FF 03 30 F0 FF 02 10 F0 FF ...  returns 0x00 (0001ms, 0668ms total)
T0CE8 000:687 JLINK_ReadMemU32(0xE000ED00, 0x0001 Items, ...) -- CPU is running -- CPU_ReadMem(4 bytes @ 0xE000ED00) -- Data:  30 C2 2F 41  returns 0x01 (0001ms, 0669ms total)
T0CE8 000:688 JLINK_SetResetType(JLINKARM_RESET_TYPE_HALT_DURING)  returns JLINKARM_RESET_TYPE_HALT_DURING (0000ms, 0669ms total)
T0CE8 000:688 JLINK_Reset() -- CPU is running -- CPU_WriteMem(4 bytes @ 0xE000EDFC) -- CPU is running -- CPU_WriteMem(4 bytes @ 0xE000EDFC) -- CPU is running -- CPU_WriteMem(4 bytes @ 0xE000EDFC) -- CPU is running -- CPU_WriteMem(4 bytes @ 0xE000EDFC) -- CPU is running -- CPU_WriteMem(4 bytes @ 0xE000EDFC) -- CPU is running -- CPU_WriteMem(4 bytes @ 0xE0001050) -- CPU is running -- CPU_WriteMem(4 bytes @ 0xE0001054) -- CPU is running -- CPU_WriteMem(4 bytes @ 0xE0001058) -- CPU is running
 -- CPU_WriteMem(4 bytes @ 0xE000ED0C) -- CPU_ReadMem(4 bytes @ 0xE000EDF0) -- CPU_WriteMem(4 bytes @ 0xE000EDFC) -- CPU_WriteMem(4 bytes @ 0xE0001058) -- CPU_ReadMem(4 bytes @ 0x00000000) -- CPU_ReadMem(4 bytes @ 0x00000004) -- CPU_WriteMem(4 bytes @ 0xE0002000) (0221ms, 0890ms total)
T0CE8 000:909 JLINK_Halt()  returns 0x00 (0000ms, 0890ms total)
T0CE8 000:909 JLINK_IsHalted() -- MA0 is in flash -- Unmirror addr 0x00000104  returns TRUE (0000ms, 0890ms total)
T0CE8 000:909 JLINK_ReadMemU32(0xE000EDF0, 0x0001 Items, ...) -- CPU_ReadMem(4 bytes @ 0xE000EDF0) -- Data:  03 00 03 00  returns 0x01 (0000ms, 0890ms total)
T0CE8 000:910 JLINK_WriteU32(0xE000EDF0, 0xA05F0003) -- CPU_WriteMem(4 bytes @ 0xE000EDF0) -- Invalidate MA0 status  returns 0x00 (0000ms, 0891ms total)
T0CE8 000:911 JLINK_WriteU32(0xE000EDFC, 0x01000000) -- CPU_WriteMem(4 bytes @ 0xE000EDFC)  returns 0x00 (0001ms, 0893ms total)
T0CE8 000:919 JLINK_GetHWStatus(...)  returns 0x00 (0001ms, 0894ms total)
T0CE8 000:926 JLINK_GetNumBPUnits(Type = 0xFFFFFF00)  returns 0x06 (0000ms, 0894ms total)
T0CE8 000:926 JLINK_GetNumBPUnits(Type = 0xF0)  returns 0x2000 (0000ms, 0894ms total)
T0CE8 000:926 JLINK_GetNumWPUnits()  returns 0x04 (0000ms, 0894ms total)
T0CE8 000:931 JLINK_GetSpeed()  returns 0x7D0 (0000ms, 0894ms total)
T0CE8 000:934 JLINK_ReadMemU32(0xE000E004, 0x0001 Items, ...) -- CPU_ReadMem(4 bytes @ 0xE000E004) -- Data:  01 00 00 00  returns 0x01 (0002ms, 0896ms total)
T0CE8 000:936 JLINK_ReadMemU32(0xE000E004, 0x0001 Items, ...) -- CPU_ReadMem(4 bytes @ 0xE000E004) -- Data:  01 00 00 00  returns 0x01 (0000ms, 0896ms total)
T0CE8 000:937 JLINK_WriteMem(0xE0001000, 0x001C Bytes, ...) -- Data:  01 00 00 00 00 00 00 00 00 00 00 00 00 00 00 00 ... -- CPU_WriteMem(28 bytes @ 0xE0001000)  returns 0x1C (0000ms, 0897ms total)
T0CE8 000:937 JLINK_ReadMem (0xE0001000, 0x001C Bytes, ...) -- CPU_ReadMem(28 bytes @ 0xE0001000) -- Data:  01 00 00 4F 00 00 00 00 00 00 00 00 00 00 00 00 ...  returns 0x00 (0001ms, 0898ms total)
T0CE8 000:939 JLINK_Halt()  returns 0x00 (0000ms, 0898ms total)
T0CE8 000:939 JLINK_IsHalted() -- MA0 is in flash -- Unmirror addr 0x00000104  returns TRUE (0000ms, 0898ms total)
T0CE8 000:942 JLINK_WriteMem(0x20000000, 0x018C Bytes, ...) -- Data:  00 BE 0A E0 0D 78 2D 06 68 40 08 24 40 00 00 D3 ... -- CPU_WriteMem(396 bytes @ 0x20000000)  returns 0x18C (0006ms, 0904ms total)
T0CE8 000:948 JLINK_WriteReg(R0, 0x00000000)  returns 0x00 (0000ms, 0904ms total)
T0CE8 000:948 JLINK_WriteReg(R1, 0x00F42400)  returns 0x00 (0000ms, 0904ms total)
T0CE8 000:948 JLINK_WriteReg(R2, 0x00000001)  returns 0x00 (0000ms, 0904ms total)
T0CE8 000:948 JLINK_WriteReg(R3, 0x00000000)  returns 0x00 (0000ms, 0904ms total)
T0CE8 000:948 JLINK_WriteReg(R4, 0x00000000)  returns 0x00 (0000ms, 0904ms total)
T0CE8 000:948 JLINK_WriteReg(R5, 0x00000000)  returns 0x00 (0000ms, 0904ms total)
T0CE8 000:948 JLINK_WriteReg(R6, 0x00000000)  returns 0x00 (0000ms, 0904ms total)
T0CE8 000:948 JLINK_WriteReg(R7, 0x00000000)  returns 0x00 (0000ms, 0904ms total)
T0CE8 000:948 JLINK_WriteReg(R8, 0x00000000)  returns 0x00 (0000ms, 0904ms total)
T0CE8 000:948 JLINK_WriteReg(R9, 0x20000188)  returns 0x00 (0000ms, 0904ms total)
T0CE8 000:948 JLINK_WriteReg(R10, 0x00000000)  returns 0x00 (0000ms, 0904ms total)
T0CE8 000:948 JLINK_WriteReg(R11, 0x00000000)  returns 0x00 (0000ms, 0904ms total)
T0CE8 000:948 JLINK_WriteReg(R12, 0x00000000)  returns 0x00 (0000ms, 0904ms total)
T0CE8 000:948 JLINK_WriteReg(R13, 0x20000800)  returns 0x00 (0000ms, 0904ms total)
T0CE8 000:948 JLINK_WriteReg(R14, 0x20000001)  returns 0x00 (0000ms, 0904ms total)
T0CE8 000:948 JLINK_WriteReg(R15, 0x20000038)  returns 0x00 (0000ms, 0904ms total)
T0CE8 000:948 JLINK_WriteReg(XPSR, 0x01000000)  returns 0x00 (0000ms, 0904ms total)
T0CE8 000:948 JLINK_WriteReg(MSP, 0x20000800)  returns 0x00 (0000ms, 0904ms total)
T0CE8 000:948 JLINK_WriteReg(PSP, 0x20000800)  returns 0x00 (0000ms, 0904ms total)
T0CE8 000:948 JLINK_WriteReg(CFBP, 0x00000000)  returns 0x00 (0000ms, 0904ms total)
T0CE8 000:948 JLINK_SetBPEx(Addr = 0x20000000, Type = 0xFFFFFFF2) -- CPU_ReadMem(2 bytes @ 0x20000000)  returns 0x00000001 (0002ms, 0906ms total)
T0CE8 000:950 JLINK_Go() -- CPU_WriteMem(2 bytes @ 0x20000000) -- Invalidate MA0 status -- CPU_WriteMem(4 bytes @ 0xE0002008) -- CPU_WriteMem(4 bytes @ 0xE000200C) -- CPU_WriteMem(4 bytes @ 0xE0002010) -- CPU_WriteMem(4 bytes @ 0xE0002014) -- CPU_WriteMem(4 bytes @ 0xE0002018) -- CPU_WriteMem(4 bytes @ 0xE000201C) (0010ms, 0916ms total)
T0CE8 000:960 JLINK_IsHalted() -- CPU_ReadMem(2 bytes @ 0x20000000)  returns TRUE (0005ms, 0921ms total)
T0CE8 000:966 JLINK_ReadReg(R15)  returns 0x20000000 (0000ms, 0916ms total)
T0CE8 000:966 JLINK_ClrBPEx(BPHandle = 0x00000001)  returns 0x00 (0000ms, 0916ms total)
T0CE8 000:966 JLINK_ReadReg(R0)  returns 0x00000000 (0000ms, 0916ms total)
T0CE8 000:966 JLINK_WriteReg(R0, 0x00000000)  returns 0x00 (0000ms, 0916ms total)
T0CE8 000:966 JLINK_WriteReg(R1, 0x00000200)  returns 0x00 (0000ms, 0916ms total)
T0CE8 000:966 JLINK_WriteReg(R2, 0x000000FF)  returns 0x00 (0000ms, 0916ms total)
T0CE8 000:966 JLINK_WriteReg(R3, 0x00000000)  returns 0x00 (0000ms, 0916ms total)
T0CE8 000:966 JLINK_WriteReg(R4, 0x00000000)  returns 0x00 (0000ms, 0916ms total)
T0CE8 000:966 JLINK_WriteReg(R5, 0x00000000)  returns 0x00 (0000ms, 0916ms total)
T0CE8 000:966 JLINK_WriteReg(R6, 0x00000000)  returns 0x00 (0000ms, 0916ms total)
T0CE8 000:966 JLINK_WriteReg(R7, 0x00000000)  returns 0x00 (0000ms, 0916ms total)
T0CE8 000:966 JLINK_WriteReg(R8, 0x00000000)  returns 0x00 (0000ms, 0916ms total)
T0CE8 000:966 JLINK_WriteReg(R9, 0x20000188)  returns 0x00 (0000ms, 0916ms total)
T0CE8 000:966 JLINK_WriteReg(R10, 0x00000000)  returns 0x00 (0000ms, 0916ms total)
T0CE8 000:966 JLINK_WriteReg(R11, 0x00000000)  returns 0x00 (0001ms, 0917ms total)
T0CE8 000:967 JLINK_WriteReg(R12, 0x00000000)  returns 0x00 (0000ms, 0917ms total)
T0CE8 000:967 JLINK_WriteReg(R13, 0x20000800)  returns 0x00 (0000ms, 0917ms total)
T0CE8 000:967 JLINK_WriteReg(R14, 0x20000001)  returns 0x00 (0000ms, 0917ms total)
T0CE8 000:967 JLINK_WriteReg(R15, 0x20000020)  returns 0x00 (0000ms, 0917ms total)
T0CE8 000:967 JLINK_WriteReg(XPSR, 0x01000000)  returns 0x00 (0000ms, 0917ms total)
T0CE8 000:967 JLINK_WriteReg(MSP, 0x20000800)  returns 0x00 (0000ms, 0917ms total)
T0CE8 000:967 JLINK_WriteReg(PSP, 0x20000800)  returns 0x00 (0000ms, 0917ms total)
T0CE8 000:967 JLINK_WriteReg(CFBP, 0x00000000)  returns 0x00 (0000ms, 0917ms total)
T0CE8 000:967 JLINK_SetBPEx(Addr = 0x20000000, Type = 0xFFFFFFF2)  returns 0x00000002 (0000ms, 0917ms total)
T0CE8 000:967 JLINK_Go() (0002ms, 0919ms total)
T0CE8 000:969 JLINK_IsHalted() -- CPU_ReadMem(2 bytes @ 0x20000000)  returns TRUE (0005ms, 0924ms total)
T0CE8 000:975 JLINK_ReadReg(R15)  returns 0x20000000 (0000ms, 0919ms total)
T0CE8 000:975 JLINK_ClrBPEx(BPHandle = 0x00000002)  returns 0x00 (0000ms, 0919ms total)
T0CE8 000:975 JLINK_ReadReg(R0)  returns 0x00000001 (0000ms, 0919ms total)
T0CE8 000:975 JLINK_WriteReg(R0, 0x00000000)  returns 0x00 (0000ms, 0919ms total)
T0CE8 000:975 JLINK_WriteReg(R1, 0x00000200)  returns 0x00 (0000ms, 0919ms total)
T0CE8 000:975 JLINK_WriteReg(R2, 0x000000FF)  returns 0x00 (0000ms, 0919ms total)
T0CE8 000:975 JLINK_WriteReg(R3, 0x00000000)  returns 0x00 (0000ms, 0919ms total)
T0CE8 000:975 JLINK_WriteReg(R4, 0x00000000)  returns 0x00 (0000ms, 0919ms total)
T0CE8 000:975 JLINK_WriteReg(R5, 0x00000000)  returns 0x00 (0000ms, 0919ms total)
T0CE8 000:975 JLINK_WriteReg(R6, 0x00000000)  returns 0x00 (0000ms, 0919ms total)
T0CE8 000:975 JLINK_WriteReg(R7, 0x00000000)  returns 0x00 (0000ms, 0919ms total)
T0CE8 000:975 JLINK_WriteReg(R8, 0x00000000)  returns 0x00 (0000ms, 0919ms total)
T0CE8 000:975 JLINK_WriteReg(R9, 0x20000188)  returns 0x00 (0000ms, 0919ms total)
T0CE8 000:975 JLINK_WriteReg(R10, 0x00000000)  returns 0x00 (0000ms, 0919ms total)
T0CE8 000:975 JLINK_WriteReg(R11, 0x00000000)  returns 0x00 (0000ms, 0919ms total)
T0CE8 000:975 JLINK_WriteReg(R12, 0x00000000)  returns 0x00 (0000ms, 0919ms total)
T0CE8 000:975 JLINK_WriteReg(R13, 0x20000800)  returns 0x00 (0000ms, 0919ms total)
T0CE8 000:975 JLINK_WriteReg(R14, 0x20000001)  returns 0x00 (0000ms, 0919ms total)
T0CE8 000:975 JLINK_WriteReg(R15, 0x200000AE)  returns 0x00 (0000ms, 0919ms total)
T0CE8 000:975 JLINK_WriteReg(XPSR, 0x01000000)  returns 0x00 (0000ms, 0919ms total)
T0CE8 000:975 JLINK_WriteReg(MSP, 0x20000800)  returns 0x00 (0000ms, 0919ms total)
T0CE8 000:975 JLINK_WriteReg(PSP, 0x20000800)  returns 0x00 (0000ms, 0919ms total)
T0CE8 000:975 JLINK_WriteReg(CFBP, 0x00000000)  returns 0x00 (0000ms, 0919ms total)
T0CE8 000:975 JLINK_SetBPEx(Addr = 0x20000000, Type = 0xFFFFFFF2)  returns 0x00000003 (0000ms, 0919ms total)
T0CE8 000:975 JLINK_Go() (0002ms, 0921ms total)
T0CE8 000:977 JLINK_IsHalted()  returns FALSE (0002ms, 0923ms total)
T0CE8 001:029 JLINK_IsHalted() -- CPU_ReadMem(2 bytes @ 0x20000000)  returns TRUE (0005ms, 0926ms total)
T0CE8 001:035 JLINK_ReadReg(R15)  returns 0x20000000 (0000ms, 0921ms total)
T0CE8 001:035 JLINK_ClrBPEx(BPHandle = 0x00000003)  returns 0x00 (0000ms, 0921ms total)
T0CE8 001:035 JLINK_ReadReg(R0)  returns 0x00000000 (0000ms, 0921ms total)
T0CE8 001:035 JLINK_WriteReg(R0, 0x00000200)  returns 0x00 (0000ms, 0921ms total)
T0CE8 001:035 JLINK_WriteReg(R1, 0x00000200)  returns 0x00 (0000ms, 0921ms total)
T0CE8 001:035 JLINK_WriteReg(R2, 0x000000FF)  returns 0x00 (0000ms, 0921ms total)
T0CE8 001:035 JLINK_WriteReg(R3, 0x00000000)  returns 0x00 (0000ms, 0921ms total)
T0CE8 001:035 JLINK_WriteReg(R4, 0x00000000)  returns 0x00 (0000ms, 0921ms total)
T0CE8 001:035 JLINK_WriteReg(R5, 0x00000000)  returns 0x00 (0000ms, 0921ms total)
T0CE8 001:035 JLINK_WriteReg(R6, 0x00000000)  returns 0x00 (0000ms, 0921ms total)
T0CE8 001:035 JLINK_WriteReg(R7, 0x00000000)  returns 0x00 (0000ms, 0921ms total)
T0CE8 001:035 JLINK_WriteReg(R8, 0x00000000)  returns 0x00 (0000ms, 0921ms total)
T0CE8 001:035 JLINK_WriteReg(R9, 0x20000188)  returns 0x00 (0000ms, 0921ms total)
T0CE8 001:035 JLINK_WriteReg(R10, 0x00000000)  returns 0x00 (0000ms, 0921ms total)
T0CE8 001:035 JLINK_WriteReg(R11, 0x00000000)  returns 0x00 (0001ms, 0922ms total)
T0CE8 001:036 JLINK_WriteReg(R12, 0x00000000)  returns 0x00 (0000ms, 0922ms total)
T0CE8 001:036 JLINK_WriteReg(R13, 0x20000800)  returns 0x00 (0000ms, 0922ms total)
T0CE8 001:036 JLINK_WriteReg(R14, 0x20000001)  returns 0x00 (0000ms, 0922ms total)
T0CE8 001:036 JLINK_WriteReg(R15, 0x20000020)  returns 0x00 (0000ms, 0922ms total)
T0CE8 001:036 JLINK_WriteReg(XPSR, 0x01000000)  returns 0x00 (0000ms, 0922ms total)
T0CE8 001:036 JLINK_WriteReg(MSP, 0x20000800)  returns 0x00 (0000ms, 0922ms total)
T0CE8 001:036 JLINK_WriteReg(PSP, 0x20000800)  returns 0x00 (0000ms, 0922ms total)
T0CE8 001:036 JLINK_WriteReg(CFBP, 0x00000000)  returns 0x00 (0000ms, 0922ms total)
T0CE8 001:036 JLINK_SetBPEx(Addr = 0x20000000, Type = 0xFFFFFFF2)  returns 0x00000004 (0000ms, 0922ms total)
T0CE8 001:036 JLINK_Go() (0002ms, 0924ms total)
T0CE8 001:038 JLINK_IsHalted() -- CPU_ReadMem(2 bytes @ 0x20000000)  returns TRUE (0005ms, 0929ms total)
T0CE8 001:044 JLINK_ReadReg(R15)  returns 0x20000000 (0000ms, 0924ms total)
T0CE8 001:044 JLINK_ClrBPEx(BPHandle = 0x00000004)  returns 0x00 (0000ms, 0924ms total)
T0CE8 001:044 JLINK_ReadReg(R0)  returns 0x00000001 (0000ms, 0924ms total)
T0CE8 001:044 JLINK_WriteReg(R0, 0x00000200)  returns 0x00 (0000ms, 0924ms total)
T0CE8 001:044 JLINK_WriteReg(R1, 0x00000200)  returns 0x00 (0000ms, 0924ms total)
T0CE8 001:044 JLINK_WriteReg(R2, 0x000000FF)  returns 0x00 (0000ms, 0924ms total)
T0CE8 001:044 JLINK_WriteReg(R3, 0x00000000)  returns 0x00 (0000ms, 0924ms total)
T0CE8 001:044 JLINK_WriteReg(R4, 0x00000000)  returns 0x00 (0000ms, 0924ms total)
T0CE8 001:044 JLINK_WriteReg(R5, 0x00000000)  returns 0x00 (0000ms, 0924ms total)
T0CE8 001:044 JLINK_WriteReg(R6, 0x00000000)  returns 0x00 (0000ms, 0924ms total)
T0CE8 001:044 JLINK_WriteReg(R7, 0x00000000)  returns 0x00 (0000ms, 0924ms total)
T0CE8 001:044 JLINK_WriteReg(R8, 0x00000000)  returns 0x00 (0000ms, 0924ms total)
T0CE8 001:044 JLINK_WriteReg(R9, 0x20000188)  returns 0x00 (0000ms, 0924ms total)
T0CE8 001:044 JLINK_WriteReg(R10, 0x00000000)  returns 0x00 (0000ms, 0924ms total)
T0CE8 001:044 JLINK_WriteReg(R11, 0x00000000)  returns 0x00 (0000ms, 0924ms total)
T0CE8 001:044 JLINK_WriteReg(R12, 0x00000000)  returns 0x00 (0000ms, 0924ms total)
T0CE8 001:044 JLINK_WriteReg(R13, 0x20000800)  returns 0x00 (0000ms, 0924ms total)
T0CE8 001:044 JLINK_WriteReg(R14, 0x20000001)  returns 0x00 (0000ms, 0924ms total)
T0CE8 001:044 JLINK_WriteReg(R15, 0x200000AE)  returns 0x00 (0000ms, 0924ms total)
T0CE8 001:044 JLINK_WriteReg(XPSR, 0x01000000)  returns 0x00 (0000ms, 0924ms total)
T0CE8 001:044 JLINK_WriteReg(MSP, 0x20000800)  returns 0x00 (0000ms, 0924ms total)
T0CE8 001:044 JLINK_WriteReg(PSP, 0x20000800)  returns 0x00 (0000ms, 0924ms total)
T0CE8 001:044 JLINK_WriteReg(CFBP, 0x00000000)  returns 0x00 (0000ms, 0924ms total)
T0CE8 001:044 JLINK_SetBPEx(Addr = 0x20000000, Type = 0xFFFFFFF2)  returns 0x00000005 (0000ms, 0924ms total)
T0CE8 001:044 JLINK_Go() (0004ms, 0928ms total)
T0CE8 001:048 JLINK_IsHalted()  returns FALSE (0000ms, 0928ms total)
T0CE8 001:099 JLINK_IsHalted() -- CPU_ReadMem(2 bytes @ 0x20000000)  returns TRUE (0004ms, 0932ms total)
T0CE8 001:104 JLINK_ReadReg(R15)  returns 0x20000000 (0000ms, 0928ms total)
T0CE8 001:104 JLINK_ClrBPEx(BPHandle = 0x00000005)  returns 0x00 (0000ms, 0928ms total)
T0CE8 001:104 JLINK_ReadReg(R0)  returns 0x00000000 (0000ms, 0928ms total)
T0CE8 001:104 JLINK_WriteReg(R0, 0x00000400)  returns 0x00 (0000ms, 0928ms total)
T0CE8 001:104 JLINK_WriteReg(R1, 0x00000200)  returns 0x00 (0000ms, 0928ms total)
T0CE8 001:104 JLINK_WriteReg(R2, 0x000000FF)  returns 0x00 (0000ms, 0928ms total)
T0CE8 001:104 JLINK_WriteReg(R3, 0x00000000)  returns 0x00 (0000ms, 0928ms total)
T0CE8 001:104 JLINK_WriteReg(R4, 0x00000000)  returns 0x00 (0000ms, 0928ms total)
T0CE8 001:104 JLINK_WriteReg(R5, 0x00000000)  returns 0x00 (0000ms, 0928ms total)
T0CE8 001:104 JLINK_WriteReg(R6, 0x00000000)  returns 0x00 (0000ms, 0928ms total)
T0CE8 001:104 JLINK_WriteReg(R7, 0x00000000)  returns 0x00 (0000ms, 0928ms total)
T0CE8 001:104 JLINK_WriteReg(R8, 0x00000000)  returns 0x00 (0000ms, 0928ms total)
T0CE8 001:104 JLINK_WriteReg(R9, 0x20000188)  returns 0x00 (0000ms, 0928ms total)
T0CE8 001:104 JLINK_WriteReg(R10, 0x00000000)  returns 0x00 (0000ms, 0928ms total)
T0CE8 001:105 JLINK_WriteReg(R11, 0x00000000)  returns 0x00 (0000ms, 0929ms total)
T0CE8 001:105 JLINK_WriteReg(R12, 0x00000000)  returns 0x00 (0000ms, 0929ms total)
T0CE8 001:105 JLINK_WriteReg(R13, 0x20000800)  returns 0x00 (0000ms, 0929ms total)
T0CE8 001:105 JLINK_WriteReg(R14, 0x20000001)  returns 0x00 (0000ms, 0929ms total)
T0CE8 001:105 JLINK_WriteReg(R15, 0x20000020)  returns 0x00 (0000ms, 0929ms total)
T0CE8 001:105 JLINK_WriteReg(XPSR, 0x01000000)  returns 0x00 (0000ms, 0929ms total)
T0CE8 001:105 JLINK_WriteReg(MSP, 0x20000800)  returns 0x00 (0000ms, 0929ms total)
T0CE8 001:105 JLINK_WriteReg(PSP, 0x20000800)  returns 0x00 (0000ms, 0929ms total)
T0CE8 001:105 JLINK_WriteReg(CFBP, 0x00000000)  returns 0x00 (0000ms, 0929ms total)
T0CE8 001:105 JLINK_SetBPEx(Addr = 0x20000000, Type = 0xFFFFFFF2)  returns 0x00000006 (0000ms, 0929ms total)
T0CE8 001:105 JLINK_Go() (0002ms, 0931ms total)
T0CE8 001:107 JLINK_IsHalted() -- CPU_ReadMem(2 bytes @ 0x20000000)  returns TRUE (0006ms, 0937ms total)
T0CE8 001:113 JLINK_ReadReg(R15)  returns 0x20000000 (0000ms, 0931ms total)
T0CE8 001:113 JLINK_ClrBPEx(BPHandle = 0x00000006)  returns 0x00 (0000ms, 0931ms total)
T0CE8 001:113 JLINK_ReadReg(R0)  returns 0x00000001 (0000ms, 0931ms total)
T0CE8 001:113 JLINK_WriteReg(R0, 0x00000400)  returns 0x00 (0000ms, 0931ms total)
T0CE8 001:113 JLINK_WriteReg(R1, 0x00000200)  returns 0x00 (0000ms, 0931ms total)
T0CE8 001:113 JLINK_WriteReg(R2, 0x000000FF)  returns 0x00 (0000ms, 0931ms total)
T0CE8 001:113 JLINK_WriteReg(R3, 0x00000000)  returns 0x00 (0000ms, 0931ms total)
T0CE8 001:113 JLINK_WriteReg(R4, 0x00000000)  returns 0x00 (0000ms, 0931ms total)
T0CE8 001:113 JLINK_WriteReg(R5, 0x00000000)  returns 0x00 (0000ms, 0931ms total)
T0CE8 001:113 JLINK_WriteReg(R6, 0x00000000)  returns 0x00 (0000ms, 0931ms total)
T0CE8 001:113 JLINK_WriteReg(R7, 0x00000000)  returns 0x00 (0000ms, 0931ms total)
T0CE8 001:113 JLINK_WriteReg(R8, 0x00000000)  returns 0x00 (0000ms, 0931ms total)
T0CE8 001:113 JLINK_WriteReg(R9, 0x20000188)  returns 0x00 (0000ms, 0931ms total)
T0CE8 001:113 JLINK_WriteReg(R10, 0x00000000)  returns 0x00 (0000ms, 0931ms total)
T0CE8 001:113 JLINK_WriteReg(R11, 0x00000000)  returns 0x00 (0000ms, 0931ms total)
T0CE8 001:113 JLINK_WriteReg(R12, 0x00000000)  returns 0x00 (0000ms, 0931ms total)
T0CE8 001:113 JLINK_WriteReg(R13, 0x20000800)  returns 0x00 (0000ms, 0931ms total)
T0CE8 001:113 JLINK_WriteReg(R14, 0x20000001)  returns 0x00 (0000ms, 0931ms total)
T0CE8 001:113 JLINK_WriteReg(R15, 0x200000AE)  returns 0x00 (0000ms, 0931ms total)
T0CE8 001:113 JLINK_WriteReg(XPSR, 0x01000000)  returns 0x00 (0000ms, 0931ms total)
T0CE8 001:113 JLINK_WriteReg(MSP, 0x20000800)  returns 0x00 (0000ms, 0931ms total)
T0CE8 001:113 JLINK_WriteReg(PSP, 0x20000800)  returns 0x00 (0000ms, 0931ms total)
T0CE8 001:113 JLINK_WriteReg(CFBP, 0x00000000)  returns 0x00 (0000ms, 0931ms total)
T0CE8 001:113 JLINK_SetBPEx(Addr = 0x20000000, Type = 0xFFFFFFF2)  returns 0x00000007 (0000ms, 0931ms total)
T0CE8 001:113 JLINK_Go() (0002ms, 0933ms total)
T0CE8 001:116 JLINK_IsHalted()  returns FALSE (0000ms, 0934ms total)
T0CE8 001:167 JLINK_IsHalted() -- CPU_ReadMem(2 bytes @ 0x20000000)  returns TRUE (0004ms, 0938ms total)
T0CE8 001:172 JLINK_ReadReg(R15)  returns 0x20000000 (0000ms, 0934ms total)
T0CE8 001:172 JLINK_ClrBPEx(BPHandle = 0x00000007)  returns 0x00 (0000ms, 0934ms total)
T0CE8 001:172 JLINK_ReadReg(R0)  returns 0x00000000 (0000ms, 0934ms total)
T0CE8 001:172 JLINK_WriteReg(R0, 0x00000600)  returns 0x00 (0000ms, 0934ms total)
T0CE8 001:172 JLINK_WriteReg(R1, 0x00000200)  returns 0x00 (0000ms, 0934ms total)
T0CE8 001:172 JLINK_WriteReg(R2, 0x000000FF)  returns 0x00 (0000ms, 0934ms total)
T0CE8 001:172 JLINK_WriteReg(R3, 0x00000000)  returns 0x00 (0000ms, 0934ms total)
T0CE8 001:172 JLINK_WriteReg(R4, 0x00000000)  returns 0x00 (0000ms, 0934ms total)
T0CE8 001:172 JLINK_WriteReg(R5, 0x00000000)  returns 0x00 (0000ms, 0934ms total)
T0CE8 001:172 JLINK_WriteReg(R6, 0x00000000)  returns 0x00 (0000ms, 0934ms total)
T0CE8 001:172 JLINK_WriteReg(R7, 0x00000000)  returns 0x00 (0000ms, 0934ms total)
T0CE8 001:172 JLINK_WriteReg(R8, 0x00000000)  returns 0x00 (0000ms, 0934ms total)
T0CE8 001:172 JLINK_WriteReg(R9, 0x20000188)  returns 0x00 (0001ms, 0935ms total)
T0CE8 001:173 JLINK_WriteReg(R10, 0x00000000)  returns 0x00 (0000ms, 0935ms total)
T0CE8 001:173 JLINK_WriteReg(R11, 0x00000000)  returns 0x00 (0000ms, 0935ms total)
T0CE8 001:173 JLINK_WriteReg(R12, 0x00000000)  returns 0x00 (0000ms, 0935ms total)
T0CE8 001:173 JLINK_WriteReg(R13, 0x20000800)  returns 0x00 (0000ms, 0935ms total)
T0CE8 001:173 JLINK_WriteReg(R14, 0x20000001)  returns 0x00 (0000ms, 0935ms total)
T0CE8 001:173 JLINK_WriteReg(R15, 0x20000020)  returns 0x00 (0000ms, 0935ms total)
T0CE8 001:173 JLINK_WriteReg(XPSR, 0x01000000)  returns 0x00 (0000ms, 0935ms total)
T0CE8 001:173 JLINK_WriteReg(MSP, 0x20000800)  returns 0x00 (0000ms, 0935ms total)
T0CE8 001:173 JLINK_WriteReg(PSP, 0x20000800)  returns 0x00 (0000ms, 0935ms total)
T0CE8 001:173 JLINK_WriteReg(CFBP, 0x00000000)  returns 0x00 (0000ms, 0935ms total)
T0CE8 001:173 JLINK_SetBPEx(Addr = 0x20000000, Type = 0xFFFFFFF2)  returns 0x00000008 (0000ms, 0935ms total)
T0CE8 001:173 JLINK_Go() (0002ms, 0937ms total)
T0CE8 001:176 JLINK_IsHalted() -- CPU_ReadMem(2 bytes @ 0x20000000)  returns TRUE (0005ms, 0942ms total)
T0CE8 001:181 JLINK_ReadReg(R15)  returns 0x20000000 (0000ms, 0937ms total)
T0CE8 001:181 JLINK_ClrBPEx(BPHandle = 0x00000008)  returns 0x00 (0000ms, 0937ms total)
T0CE8 001:181 JLINK_ReadReg(R0)  returns 0x00000001 (0000ms, 0937ms total)
T0CE8 001:181 JLINK_WriteReg(R0, 0x00000600)  returns 0x00 (0000ms, 0937ms total)
T0CE8 001:181 JLINK_WriteReg(R1, 0x00000200)  returns 0x00 (0000ms, 0937ms total)
T0CE8 001:181 JLINK_WriteReg(R2, 0x000000FF)  returns 0x00 (0000ms, 0937ms total)
T0CE8 001:181 JLINK_WriteReg(R3, 0x00000000)  returns 0x00 (0000ms, 0937ms total)
T0CE8 001:181 JLINK_WriteReg(R4, 0x00000000)  returns 0x00 (0000ms, 0937ms total)
T0CE8 001:181 JLINK_WriteReg(R5, 0x00000000)  returns 0x00 (0000ms, 0937ms total)
T0CE8 001:181 JLINK_WriteReg(R6, 0x00000000)  returns 0x00 (0000ms, 0937ms total)
T0CE8 001:181 JLINK_WriteReg(R7, 0x00000000)  returns 0x00 (0000ms, 0937ms total)
T0CE8 001:181 JLINK_WriteReg(R8, 0x00000000)  returns 0x00 (0000ms, 0937ms total)
T0CE8 001:181 JLINK_WriteReg(R9, 0x20000188)  returns 0x00 (0000ms, 0937ms total)
T0CE8 001:181 JLINK_WriteReg(R10, 0x00000000)  returns 0x00 (0000ms, 0937ms total)
T0CE8 001:181 JLINK_WriteReg(R11, 0x00000000)  returns 0x00 (0000ms, 0937ms total)
T0CE8 001:181 JLINK_WriteReg(R12, 0x00000000)  returns 0x00 (0000ms, 0937ms total)
T0CE8 001:181 JLINK_WriteReg(R13, 0x20000800)  returns 0x00 (0000ms, 0937ms total)
T0CE8 001:181 JLINK_WriteReg(R14, 0x20000001)  returns 0x00 (0000ms, 0937ms total)
T0CE8 001:181 JLINK_WriteReg(R15, 0x200000AE)  returns 0x00 (0000ms, 0937ms total)
T0CE8 001:181 JLINK_WriteReg(XPSR, 0x01000000)  returns 0x00 (0000ms, 0937ms total)
T0CE8 001:181 JLINK_WriteReg(MSP, 0x20000800)  returns 0x00 (0000ms, 0937ms total)
T0CE8 001:181 JLINK_WriteReg(PSP, 0x20000800)  returns 0x00 (0000ms, 0937ms total)
T0CE8 001:181 JLINK_WriteReg(CFBP, 0x00000000)  returns 0x00 (0000ms, 0937ms total)
T0CE8 001:181 JLINK_SetBPEx(Addr = 0x20000000, Type = 0xFFFFFFF2)  returns 0x00000009 (0000ms, 0937ms total)
T0CE8 001:181 JLINK_Go() (0002ms, 0939ms total)
T0CE8 001:184 JLINK_IsHalted()  returns FALSE (0000ms, 0939ms total)
T0CE8 001:234 JLINK_IsHalted() -- CPU_ReadMem(2 bytes @ 0x20000000)  returns TRUE (0004ms, 0943ms total)
T0CE8 001:239 JLINK_ReadReg(R15)  returns 0x20000000 (0000ms, 0939ms total)
T0CE8 001:239 JLINK_ClrBPEx(BPHandle = 0x00000009)  returns 0x00 (0000ms, 0939ms total)
T0CE8 001:239 JLINK_ReadReg(R0)  returns 0x00000000 (0000ms, 0939ms total)
T0CE8 001:239 JLINK_WriteReg(R0, 0x00000800)  returns 0x00 (0000ms, 0939ms total)
T0CE8 001:239 JLINK_WriteReg(R1, 0x00000200)  returns 0x00 (0000ms, 0939ms total)
T0CE8 001:239 JLINK_WriteReg(R2, 0x000000FF)  returns 0x00 (0000ms, 0939ms total)
T0CE8 001:239 JLINK_WriteReg(R3, 0x00000000)  returns 0x00 (0000ms, 0939ms total)
T0CE8 001:239 JLINK_WriteReg(R4, 0x00000000)  returns 0x00 (0000ms, 0939ms total)
T0CE8 001:239 JLINK_WriteReg(R5, 0x00000000)  returns 0x00 (0000ms, 0939ms total)
T0CE8 001:239 JLINK_WriteReg(R6, 0x00000000)  returns 0x00 (0000ms, 0939ms total)
T0CE8 001:239 JLINK_WriteReg(R7, 0x00000000)  returns 0x00 (0000ms, 0939ms total)
T0CE8 001:239 JLINK_WriteReg(R8, 0x00000000)  returns 0x00 (0000ms, 0939ms total)
T0CE8 001:239 JLINK_WriteReg(R9, 0x20000188)  returns 0x00 (0000ms, 0939ms total)
T0CE8 001:239 JLINK_WriteReg(R10, 0x00000000)  returns 0x00 (0000ms, 0939ms total)
T0CE8 001:239 JLINK_WriteReg(R11, 0x00000000)  returns 0x00 (0000ms, 0939ms total)
T0CE8 001:239 JLINK_WriteReg(R12, 0x00000000)  returns 0x00 (0000ms, 0939ms total)
T0CE8 001:239 JLINK_WriteReg(R13, 0x20000800)  returns 0x00 (0001ms, 0940ms total)
T0CE8 001:240 JLINK_WriteReg(R14, 0x20000001)  returns 0x00 (0000ms, 0940ms total)
T0CE8 001:240 JLINK_WriteReg(R15, 0x20000020)  returns 0x00 (0000ms, 0940ms total)
T0CE8 001:240 JLINK_WriteReg(XPSR, 0x01000000)  returns 0x00 (0000ms, 0940ms total)
T0CE8 001:240 JLINK_WriteReg(MSP, 0x20000800)  returns 0x00 (0000ms, 0940ms total)
T0CE8 001:240 JLINK_WriteReg(PSP, 0x20000800)  returns 0x00 (0000ms, 0940ms total)
T0CE8 001:240 JLINK_WriteReg(CFBP, 0x00000000)  returns 0x00 (0000ms, 0940ms total)
T0CE8 001:240 JLINK_SetBPEx(Addr = 0x20000000, Type = 0xFFFFFFF2)  returns 0x0000000A (0000ms, 0940ms total)
T0CE8 001:240 JLINK_Go() (0002ms, 0942ms total)
T0CE8 001:242 JLINK_IsHalted() -- CPU_ReadMem(2 bytes @ 0x20000000)  returns TRUE (0006ms, 0948ms total)
T0CE8 001:248 JLINK_ReadReg(R15)  returns 0x20000000 (0000ms, 0942ms total)
T0CE8 001:248 JLINK_ClrBPEx(BPHandle = 0x0000000A)  returns 0x00 (0000ms, 0942ms total)
T0CE8 001:248 JLINK_ReadReg(R0)  returns 0x00000001 (0000ms, 0942ms total)
T0CE8 001:248 JLINK_WriteReg(R0, 0x00000800)  returns 0x00 (0000ms, 0942ms total)
T0CE8 001:248 JLINK_WriteReg(R1, 0x00000200)  returns 0x00 (0000ms, 0942ms total)
T0CE8 001:248 JLINK_WriteReg(R2, 0x000000FF)  returns 0x00 (0000ms, 0942ms total)
T0CE8 001:248 JLINK_WriteReg(R3, 0x00000000)  returns 0x00 (0000ms, 0942ms total)
T0CE8 001:248 JLINK_WriteReg(R4, 0x00000000)  returns 0x00 (0000ms, 0942ms total)
T0CE8 001:248 JLINK_WriteReg(R5, 0x00000000)  returns 0x00 (0000ms, 0942ms total)
T0CE8 001:248 JLINK_WriteReg(R6, 0x00000000)  returns 0x00 (0000ms, 0942ms total)
T0CE8 001:248 JLINK_WriteReg(R7, 0x00000000)  returns 0x00 (0000ms, 0942ms total)
T0CE8 001:248 JLINK_WriteReg(R8, 0x00000000)  returns 0x00 (0000ms, 0942ms total)
T0CE8 001:248 JLINK_WriteReg(R9, 0x20000188)  returns 0x00 (0000ms, 0942ms total)
T0CE8 001:248 JLINK_WriteReg(R10, 0x00000000)  returns 0x00 (0000ms, 0942ms total)
T0CE8 001:248 JLINK_WriteReg(R11, 0x00000000)  returns 0x00 (0000ms, 0942ms total)
T0CE8 001:248 JLINK_WriteReg(R12, 0x00000000)  returns 0x00 (0000ms, 0942ms total)
T0CE8 001:248 JLINK_WriteReg(R13, 0x20000800)  returns 0x00 (0000ms, 0942ms total)
T0CE8 001:248 JLINK_WriteReg(R14, 0x20000001)  returns 0x00 (0000ms, 0942ms total)
T0CE8 001:248 JLINK_WriteReg(R15, 0x200000AE)  returns 0x00 (0000ms, 0942ms total)
T0CE8 001:248 JLINK_WriteReg(XPSR, 0x01000000)  returns 0x00 (0000ms, 0942ms total)
T0CE8 001:248 JLINK_WriteReg(MSP, 0x20000800)  returns 0x00 (0000ms, 0942ms total)
T0CE8 001:248 JLINK_WriteReg(PSP, 0x20000800)  returns 0x00 (0000ms, 0942ms total)
T0CE8 001:248 JLINK_WriteReg(CFBP, 0x00000000)  returns 0x00 (0000ms, 0942ms total)
T0CE8 001:248 JLINK_SetBPEx(Addr = 0x20000000, Type = 0xFFFFFFF2)  returns 0x0000000B (0000ms, 0942ms total)
T0CE8 001:248 JLINK_Go() (0002ms, 0944ms total)
T0CE8 001:250 JLINK_IsHalted()  returns FALSE (0001ms, 0945ms total)
T0CE8 001:301 JLINK_IsHalted() -- CPU_ReadMem(2 bytes @ 0x20000000)  returns TRUE (0004ms, 0948ms total)
T0CE8 001:306 JLINK_ReadReg(R15)  returns 0x20000000 (0000ms, 0944ms total)
T0CE8 001:306 JLINK_ClrBPEx(BPHandle = 0x0000000B)  returns 0x00 (0000ms, 0944ms total)
T0CE8 001:306 JLINK_ReadReg(R0)  returns 0x00000000 (0000ms, 0944ms total)
T0CE8 001:306 JLINK_WriteReg(R0, 0x00000A00)  returns 0x00 (0000ms, 0944ms total)
T0CE8 001:306 JLINK_WriteReg(R1, 0x00000200)  returns 0x00 (0000ms, 0944ms total)
T0CE8 001:306 JLINK_WriteReg(R2, 0x000000FF)  returns 0x00 (0000ms, 0944ms total)
T0CE8 001:306 JLINK_WriteReg(R3, 0x00000000)  returns 0x00 (0000ms, 0944ms total)
T0CE8 001:306 JLINK_WriteReg(R4, 0x00000000)  returns 0x00 (0000ms, 0944ms total)
T0CE8 001:306 JLINK_WriteReg(R5, 0x00000000)  returns 0x00 (0000ms, 0944ms total)
T0CE8 001:306 JLINK_WriteReg(R6, 0x00000000)  returns 0x00 (0000ms, 0944ms total)
T0CE8 001:306 JLINK_WriteReg(R7, 0x00000000)  returns 0x00 (0000ms, 0944ms total)
T0CE8 001:306 JLINK_WriteReg(R8, 0x00000000)  returns 0x00 (0000ms, 0944ms total)
T0CE8 001:306 JLINK_WriteReg(R9, 0x20000188)  returns 0x00 (0000ms, 0944ms total)
T0CE8 001:306 JLINK_WriteReg(R10, 0x00000000)  returns 0x00 (0000ms, 0944ms total)
T0CE8 001:307 JLINK_WriteReg(R11, 0x00000000)  returns 0x00 (0000ms, 0945ms total)
T0CE8 001:307 JLINK_WriteReg(R12, 0x00000000)  returns 0x00 (0000ms, 0945ms total)
T0CE8 001:307 JLINK_WriteReg(R13, 0x20000800)  returns 0x00 (0000ms, 0945ms total)
T0CE8 001:307 JLINK_WriteReg(R14, 0x20000001)  returns 0x00 (0000ms, 0945ms total)
T0CE8 001:307 JLINK_WriteReg(R15, 0x20000020)  returns 0x00 (0000ms, 0945ms total)
T0CE8 001:307 JLINK_WriteReg(XPSR, 0x01000000)  returns 0x00 (0000ms, 0945ms total)
T0CE8 001:307 JLINK_WriteReg(MSP, 0x20000800)  returns 0x00 (0000ms, 0945ms total)
T0CE8 001:307 JLINK_WriteReg(PSP, 0x20000800)  returns 0x00 (0000ms, 0945ms total)
T0CE8 001:307 JLINK_WriteReg(CFBP, 0x00000000)  returns 0x00 (0000ms, 0945ms total)
T0CE8 001:307 JLINK_SetBPEx(Addr = 0x20000000, Type = 0xFFFFFFF2)  returns 0x0000000C (0000ms, 0945ms total)
T0CE8 001:307 JLINK_Go() (0002ms, 0947ms total)
T0CE8 001:310 JLINK_IsHalted() -- CPU_ReadMem(2 bytes @ 0x20000000)  returns TRUE (0005ms, 0952ms total)
T0CE8 001:315 JLINK_ReadReg(R15)  returns 0x20000000 (0000ms, 0947ms total)
T0CE8 001:315 JLINK_ClrBPEx(BPHandle = 0x0000000C)  returns 0x00 (0000ms, 0947ms total)
T0CE8 001:315 JLINK_ReadReg(R0)  returns 0x00000001 (0000ms, 0947ms total)
T0CE8 001:315 JLINK_WriteReg(R0, 0x00000A00)  returns 0x00 (0000ms, 0947ms total)
T0CE8 001:315 JLINK_WriteReg(R1, 0x00000200)  returns 0x00 (0000ms, 0947ms total)
T0CE8 001:315 JLINK_WriteReg(R2, 0x000000FF)  returns 0x00 (0000ms, 0947ms total)
T0CE8 001:315 JLINK_WriteReg(R3, 0x00000000)  returns 0x00 (0000ms, 0947ms total)
T0CE8 001:315 JLINK_WriteReg(R4, 0x00000000)  returns 0x00 (0000ms, 0947ms total)
T0CE8 001:315 JLINK_WriteReg(R5, 0x00000000)  returns 0x00 (0000ms, 0947ms total)
T0CE8 001:315 JLINK_WriteReg(R6, 0x00000000)  returns 0x00 (0000ms, 0947ms total)
T0CE8 001:315 JLINK_WriteReg(R7, 0x00000000)  returns 0x00 (0000ms, 0947ms total)
T0CE8 001:315 JLINK_WriteReg(R8, 0x00000000)  returns 0x00 (0000ms, 0947ms total)
T0CE8 001:315 JLINK_WriteReg(R9, 0x20000188)  returns 0x00 (0000ms, 0947ms total)
T0CE8 001:315 JLINK_WriteReg(R10, 0x00000000)  returns 0x00 (0000ms, 0947ms total)
T0CE8 001:315 JLINK_WriteReg(R11, 0x00000000)  returns 0x00 (0000ms, 0947ms total)
T0CE8 001:315 JLINK_WriteReg(R12, 0x00000000)  returns 0x00 (0000ms, 0947ms total)
T0CE8 001:315 JLINK_WriteReg(R13, 0x20000800)  returns 0x00 (0000ms, 0947ms total)
T0CE8 001:315 JLINK_WriteReg(R14, 0x20000001)  returns 0x00 (0000ms, 0947ms total)
T0CE8 001:315 JLINK_WriteReg(R15, 0x200000AE)  returns 0x00 (0000ms, 0947ms total)
T0CE8 001:315 JLINK_WriteReg(XPSR, 0x01000000)  returns 0x00 (0000ms, 0947ms total)
T0CE8 001:315 JLINK_WriteReg(MSP, 0x20000800)  returns 0x00 (0000ms, 0947ms total)
T0CE8 001:315 JLINK_WriteReg(PSP, 0x20000800)  returns 0x00 (0000ms, 0947ms total)
T0CE8 001:315 JLINK_WriteReg(CFBP, 0x00000000)  returns 0x00 (0000ms, 0947ms total)
T0CE8 001:315 JLINK_SetBPEx(Addr = 0x20000000, Type = 0xFFFFFFF2)  returns 0x0000000D (0000ms, 0947ms total)
T0CE8 001:315 JLINK_Go() (0002ms, 0949ms total)
T0CE8 001:317 JLINK_IsHalted()  returns FALSE (0001ms, 0950ms total)
T0CE8 001:368 JLINK_IsHalted() -- CPU_ReadMem(2 bytes @ 0x20000000)  returns TRUE (0004ms, 0953ms total)
T0CE8 001:373 JLINK_ReadReg(R15)  returns 0x20000000 (0000ms, 0949ms total)
T0CE8 001:373 JLINK_ClrBPEx(BPHandle = 0x0000000D)  returns 0x00 (0000ms, 0949ms total)
T0CE8 001:373 JLINK_ReadReg(R0)  returns 0x00000000 (0000ms, 0949ms total)
T0CE8 001:373 JLINK_WriteReg(R0, 0x00000C00)  returns 0x00 (0000ms, 0949ms total)
T0CE8 001:373 JLINK_WriteReg(R1, 0x00000200)  returns 0x00 (0000ms, 0949ms total)
T0CE8 001:373 JLINK_WriteReg(R2, 0x000000FF)  returns 0x00 (0000ms, 0949ms total)
T0CE8 001:373 JLINK_WriteReg(R3, 0x00000000)  returns 0x00 (0000ms, 0949ms total)
T0CE8 001:373 JLINK_WriteReg(R4, 0x00000000)  returns 0x00 (0000ms, 0949ms total)
T0CE8 001:373 JLINK_WriteReg(R5, 0x00000000)  returns 0x00 (0000ms, 0949ms total)
T0CE8 001:373 JLINK_WriteReg(R6, 0x00000000)  returns 0x00 (0000ms, 0949ms total)
T0CE8 001:373 JLINK_WriteReg(R7, 0x00000000)  returns 0x00 (0000ms, 0949ms total)
T0CE8 001:373 JLINK_WriteReg(R8, 0x00000000)  returns 0x00 (0000ms, 0949ms total)
T0CE8 001:373 JLINK_WriteReg(R9, 0x20000188)  returns 0x00 (0000ms, 0949ms total)
T0CE8 001:374 JLINK_WriteReg(R10, 0x00000000)  returns 0x00 (0000ms, 0950ms total)
T0CE8 001:374 JLINK_WriteReg(R11, 0x00000000)  returns 0x00 (0000ms, 0950ms total)
T0CE8 001:374 JLINK_WriteReg(R12, 0x00000000)  returns 0x00 (0000ms, 0950ms total)
T0CE8 001:374 JLINK_WriteReg(R13, 0x20000800)  returns 0x00 (0000ms, 0950ms total)
T0CE8 001:374 JLINK_WriteReg(R14, 0x20000001)  returns 0x00 (0000ms, 0950ms total)
T0CE8 001:374 JLINK_WriteReg(R15, 0x20000020)  returns 0x00 (0000ms, 0950ms total)
T0CE8 001:374 JLINK_WriteReg(XPSR, 0x01000000)  returns 0x00 (0000ms, 0950ms total)
T0CE8 001:374 JLINK_WriteReg(MSP, 0x20000800)  returns 0x00 (0000ms, 0950ms total)
T0CE8 001:374 JLINK_WriteReg(PSP, 0x20000800)  returns 0x00 (0000ms, 0950ms total)
T0CE8 001:374 JLINK_WriteReg(CFBP, 0x00000000)  returns 0x00 (0000ms, 0950ms total)
T0CE8 001:374 JLINK_SetBPEx(Addr = 0x20000000, Type = 0xFFFFFFF2)  returns 0x0000000E (0000ms, 0950ms total)
T0CE8 001:374 JLINK_Go() (0002ms, 0952ms total)
T0CE8 001:376 JLINK_IsHalted() -- CPU_ReadMem(2 bytes @ 0x20000000)  returns TRUE (0005ms, 0957ms total)
T0CE8 001:382 JLINK_ReadReg(R15)  returns 0x20000000 (0000ms, 0952ms total)
T0CE8 001:382 JLINK_ClrBPEx(BPHandle = 0x0000000E)  returns 0x00 (0000ms, 0952ms total)
T0CE8 001:382 JLINK_ReadReg(R0)  returns 0x00000001 (0000ms, 0952ms total)
T0CE8 001:382 JLINK_WriteReg(R0, 0x00000C00)  returns 0x00 (0000ms, 0952ms total)
T0CE8 001:382 JLINK_WriteReg(R1, 0x00000200)  returns 0x00 (0000ms, 0952ms total)
T0CE8 001:382 JLINK_WriteReg(R2, 0x000000FF)  returns 0x00 (0000ms, 0952ms total)
T0CE8 001:382 JLINK_WriteReg(R3, 0x00000000)  returns 0x00 (0000ms, 0952ms total)
T0CE8 001:382 JLINK_WriteReg(R4, 0x00000000)  returns 0x00 (0000ms, 0952ms total)
T0CE8 001:382 JLINK_WriteReg(R5, 0x00000000)  returns 0x00 (0000ms, 0952ms total)
T0CE8 001:382 JLINK_WriteReg(R6, 0x00000000)  returns 0x00 (0000ms, 0952ms total)
T0CE8 001:382 JLINK_WriteReg(R7, 0x00000000)  returns 0x00 (0000ms, 0952ms total)
T0CE8 001:382 JLINK_WriteReg(R8, 0x00000000)  returns 0x00 (0000ms, 0952ms total)
T0CE8 001:382 JLINK_WriteReg(R9, 0x20000188)  returns 0x00 (0000ms, 0952ms total)
T0CE8 001:382 JLINK_WriteReg(R10, 0x00000000)  returns 0x00 (0000ms, 0952ms total)
T0CE8 001:382 JLINK_WriteReg(R11, 0x00000000)  returns 0x00 (0000ms, 0952ms total)
T0CE8 001:382 JLINK_WriteReg(R12, 0x00000000)  returns 0x00 (0000ms, 0952ms total)
T0CE8 001:382 JLINK_WriteReg(R13, 0x20000800)  returns 0x00 (0000ms, 0952ms total)
T0CE8 001:382 JLINK_WriteReg(R14, 0x20000001)  returns 0x00 (0000ms, 0952ms total)
T0CE8 001:382 JLINK_WriteReg(R15, 0x200000AE)  returns 0x00 (0000ms, 0952ms total)
T0CE8 001:382 JLINK_WriteReg(XPSR, 0x01000000)  returns 0x00 (0000ms, 0952ms total)
T0CE8 001:382 JLINK_WriteReg(MSP, 0x20000800)  returns 0x00 (0000ms, 0952ms total)
T0CE8 001:382 JLINK_WriteReg(PSP, 0x20000800)  returns 0x00 (0000ms, 0952ms total)
T0CE8 001:382 JLINK_WriteReg(CFBP, 0x00000000)  returns 0x00 (0000ms, 0952ms total)
T0CE8 001:382 JLINK_SetBPEx(Addr = 0x20000000, Type = 0xFFFFFFF2)  returns 0x0000000F (0000ms, 0952ms total)
T0CE8 001:382 JLINK_Go() (0002ms, 0954ms total)
T0CE8 001:384 JLINK_IsHalted()  returns FALSE (0001ms, 0955ms total)
T0CE8 001:435 JLINK_IsHalted() -- CPU_ReadMem(2 bytes @ 0x20000000)  returns TRUE (0004ms, 0958ms total)
T0CE8 001:440 JLINK_ReadReg(R15)  returns 0x20000000 (0000ms, 0954ms total)
T0CE8 001:440 JLINK_ClrBPEx(BPHandle = 0x0000000F)  returns 0x00 (0000ms, 0954ms total)
T0CE8 001:440 JLINK_ReadReg(R0)  returns 0x00000000 (0000ms, 0954ms total)
T0CE8 001:440 JLINK_WriteReg(R0, 0x00000E00)  returns 0x00 (0000ms, 0954ms total)
T0CE8 001:440 JLINK_WriteReg(R1, 0x00000200)  returns 0x00 (0000ms, 0954ms total)
T0CE8 001:440 JLINK_WriteReg(R2, 0x000000FF)  returns 0x00 (0000ms, 0954ms total)
T0CE8 001:440 JLINK_WriteReg(R3, 0x00000000)  returns 0x00 (0000ms, 0954ms total)
T0CE8 001:440 JLINK_WriteReg(R4, 0x00000000)  returns 0x00 (0000ms, 0954ms total)
T0CE8 001:440 JLINK_WriteReg(R5, 0x00000000)  returns 0x00 (0000ms, 0954ms total)
T0CE8 001:440 JLINK_WriteReg(R6, 0x00000000)  returns 0x00 (0000ms, 0954ms total)
T0CE8 001:440 JLINK_WriteReg(R7, 0x00000000)  returns 0x00 (0000ms, 0954ms total)
T0CE8 001:440 JLINK_WriteReg(R8, 0x00000000)  returns 0x00 (0000ms, 0954ms total)
T0CE8 001:440 JLINK_WriteReg(R9, 0x20000188)  returns 0x00 (0000ms, 0954ms total)
T0CE8 001:441 JLINK_WriteReg(R10, 0x00000000)  returns 0x00 (0000ms, 0954ms total)
T0CE8 001:441 JLINK_WriteReg(R11, 0x00000000)  returns 0x00 (0000ms, 0954ms total)
T0CE8 001:441 JLINK_WriteReg(R12, 0x00000000)  returns 0x00 (0000ms, 0954ms total)
T0CE8 001:441 JLINK_WriteReg(R13, 0x20000800)  returns 0x00 (0000ms, 0954ms total)
T0CE8 001:441 JLINK_WriteReg(R14, 0x20000001)  returns 0x00 (0000ms, 0954ms total)
T0CE8 001:441 JLINK_WriteReg(R15, 0x20000020)  returns 0x00 (0000ms, 0954ms total)
T0CE8 001:441 JLINK_WriteReg(XPSR, 0x01000000)  returns 0x00 (0000ms, 0954ms total)
T0CE8 001:441 JLINK_WriteReg(MSP, 0x20000800)  returns 0x00 (0000ms, 0954ms total)
T0CE8 001:441 JLINK_WriteReg(PSP, 0x20000800)  returns 0x00 (0000ms, 0954ms total)
T0CE8 001:441 JLINK_WriteReg(CFBP, 0x00000000)  returns 0x00 (0000ms, 0954ms total)
T0CE8 001:441 JLINK_SetBPEx(Addr = 0x20000000, Type = 0xFFFFFFF2)  returns 0x00000010 (0000ms, 0954ms total)
T0CE8 001:441 JLINK_Go() (0002ms, 0956ms total)
T0CE8 001:443 JLINK_IsHalted() -- CPU_ReadMem(2 bytes @ 0x20000000)  returns TRUE (0007ms, 0963ms total)
T0CE8 001:450 JLINK_ReadReg(R15)  returns 0x20000000 (0000ms, 0956ms total)
T0CE8 001:450 JLINK_ClrBPEx(BPHandle = 0x00000010)  returns 0x00 (0000ms, 0956ms total)
T0CE8 001:450 JLINK_ReadReg(R0)  returns 0x00000001 (0000ms, 0956ms total)
T0CE8 001:450 JLINK_WriteReg(R0, 0x00000E00)  returns 0x00 (0000ms, 0956ms total)
T0CE8 001:450 JLINK_WriteReg(R1, 0x00000200)  returns 0x00 (0000ms, 0956ms total)
T0CE8 001:450 JLINK_WriteReg(R2, 0x000000FF)  returns 0x00 (0000ms, 0956ms total)
T0CE8 001:450 JLINK_WriteReg(R3, 0x00000000)  returns 0x00 (0000ms, 0956ms total)
T0CE8 001:450 JLINK_WriteReg(R4, 0x00000000)  returns 0x00 (0000ms, 0956ms total)
T0CE8 001:450 JLINK_WriteReg(R5, 0x00000000)  returns 0x00 (0000ms, 0956ms total)
T0CE8 001:450 JLINK_WriteReg(R6, 0x00000000)  returns 0x00 (0000ms, 0956ms total)
T0CE8 001:450 JLINK_WriteReg(R7, 0x00000000)  returns 0x00 (0000ms, 0956ms total)
T0CE8 001:450 JLINK_WriteReg(R8, 0x00000000)  returns 0x00 (0000ms, 0956ms total)
T0CE8 001:450 JLINK_WriteReg(R9, 0x20000188)  returns 0x00 (0000ms, 0956ms total)
T0CE8 001:450 JLINK_WriteReg(R10, 0x00000000)  returns 0x00 (0000ms, 0956ms total)
T0CE8 001:450 JLINK_WriteReg(R11, 0x00000000)  returns 0x00 (0000ms, 0956ms total)
T0CE8 001:450 JLINK_WriteReg(R12, 0x00000000)  returns 0x00 (0000ms, 0956ms total)
T0CE8 001:450 JLINK_WriteReg(R13, 0x20000800)  returns 0x00 (0000ms, 0956ms total)
T0CE8 001:450 JLINK_WriteReg(R14, 0x20000001)  returns 0x00 (0000ms, 0956ms total)
T0CE8 001:450 JLINK_WriteReg(R15, 0x200000AE)  returns 0x00 (0000ms, 0956ms total)
T0CE8 001:450 JLINK_WriteReg(XPSR, 0x01000000)  returns 0x00 (0000ms, 0956ms total)
T0CE8 001:450 JLINK_WriteReg(MSP, 0x20000800)  returns 0x00 (0000ms, 0956ms total)
T0CE8 001:450 JLINK_WriteReg(PSP, 0x20000800)  returns 0x00 (0000ms, 0956ms total)
T0CE8 001:450 JLINK_WriteReg(CFBP, 0x00000000)  returns 0x00 (0000ms, 0956ms total)
T0CE8 001:450 JLINK_SetBPEx(Addr = 0x20000000, Type = 0xFFFFFFF2)  returns 0x00000011 (0000ms, 0956ms total)
T0CE8 001:450 JLINK_Go() (0002ms, 0958ms total)
T0CE8 001:452 JLINK_IsHalted()  returns FALSE (0001ms, 0959ms total)
T0CE8 001:503 JLINK_IsHalted() -- CPU_ReadMem(2 bytes @ 0x20000000)  returns TRUE (0004ms, 0962ms total)
T0CE8 001:508 JLINK_ReadReg(R15)  returns 0x20000000 (0000ms, 0958ms total)
T0CE8 001:508 JLINK_ClrBPEx(BPHandle = 0x00000011)  returns 0x00 (0000ms, 0958ms total)
T0CE8 001:508 JLINK_ReadReg(R0)  returns 0x00000000 (0000ms, 0958ms total)
T0CE8 001:508 JLINK_WriteReg(R0, 0x00001000)  returns 0x00 (0000ms, 0958ms total)
T0CE8 001:508 JLINK_WriteReg(R1, 0x00000200)  returns 0x00 (0000ms, 0958ms total)
T0CE8 001:508 JLINK_WriteReg(R2, 0x000000FF)  returns 0x00 (0000ms, 0958ms total)
T0CE8 001:508 JLINK_WriteReg(R3, 0x00000000)  returns 0x00 (0000ms, 0958ms total)
T0CE8 001:508 JLINK_WriteReg(R4, 0x00000000)  returns 0x00 (0000ms, 0958ms total)
T0CE8 001:508 JLINK_WriteReg(R5, 0x00000000)  returns 0x00 (0000ms, 0958ms total)
T0CE8 001:508 JLINK_WriteReg(R6, 0x00000000)  returns 0x00 (0000ms, 0958ms total)
T0CE8 001:508 JLINK_WriteReg(R7, 0x00000000)  returns 0x00 (0000ms, 0958ms total)
T0CE8 001:508 JLINK_WriteReg(R8, 0x00000000)  returns 0x00 (0000ms, 0958ms total)
T0CE8 001:508 JLINK_WriteReg(R9, 0x20000188)  returns 0x00 (0000ms, 0958ms total)
T0CE8 001:508 JLINK_WriteReg(R10, 0x00000000)  returns 0x00 (0001ms, 0959ms total)
T0CE8 001:509 JLINK_WriteReg(R11, 0x00000000)  returns 0x00 (0000ms, 0959ms total)
T0CE8 001:509 JLINK_WriteReg(R12, 0x00000000)  returns 0x00 (0000ms, 0959ms total)
T0CE8 001:509 JLINK_WriteReg(R13, 0x20000800)  returns 0x00 (0000ms, 0959ms total)
T0CE8 001:509 JLINK_WriteReg(R14, 0x20000001)  returns 0x00 (0000ms, 0959ms total)
T0CE8 001:509 JLINK_WriteReg(R15, 0x20000020)  returns 0x00 (0000ms, 0959ms total)
T0CE8 001:509 JLINK_WriteReg(XPSR, 0x01000000)  returns 0x00 (0000ms, 0959ms total)
T0CE8 001:509 JLINK_WriteReg(MSP, 0x20000800)  returns 0x00 (0000ms, 0959ms total)
T0CE8 001:509 JLINK_WriteReg(PSP, 0x20000800)  returns 0x00 (0000ms, 0959ms total)
T0CE8 001:509 JLINK_WriteReg(CFBP, 0x00000000)  returns 0x00 (0000ms, 0959ms total)
T0CE8 001:509 JLINK_SetBPEx(Addr = 0x20000000, Type = 0xFFFFFFF2)  returns 0x00000012 (0000ms, 0959ms total)
T0CE8 001:509 JLINK_Go() (0003ms, 0962ms total)
T0CE8 001:513 JLINK_IsHalted() -- CPU_ReadMem(2 bytes @ 0x20000000)  returns TRUE (0004ms, 0967ms total)
T0CE8 001:518 JLINK_ReadReg(R15)  returns 0x20000000 (0000ms, 0963ms total)
T0CE8 001:518 JLINK_ClrBPEx(BPHandle = 0x00000012)  returns 0x00 (0000ms, 0963ms total)
T0CE8 001:518 JLINK_ReadReg(R0)  returns 0x00000001 (0000ms, 0963ms total)
T0CE8 001:518 JLINK_WriteReg(R0, 0x00001000)  returns 0x00 (0000ms, 0963ms total)
T0CE8 001:518 JLINK_WriteReg(R1, 0x00000200)  returns 0x00 (0000ms, 0963ms total)
T0CE8 001:518 JLINK_WriteReg(R2, 0x000000FF)  returns 0x00 (0000ms, 0963ms total)
T0CE8 001:518 JLINK_WriteReg(R3, 0x00000000)  returns 0x00 (0000ms, 0963ms total)
T0CE8 001:518 JLINK_WriteReg(R4, 0x00000000)  returns 0x00 (0000ms, 0963ms total)
T0CE8 001:518 JLINK_WriteReg(R5, 0x00000000)  returns 0x00 (0000ms, 0963ms total)
T0CE8 001:518 JLINK_WriteReg(R6, 0x00000000)  returns 0x00 (0000ms, 0963ms total)
T0CE8 001:518 JLINK_WriteReg(R7, 0x00000000)  returns 0x00 (0000ms, 0963ms total)
T0CE8 001:518 JLINK_WriteReg(R8, 0x00000000)  returns 0x00 (0000ms, 0963ms total)
T0CE8 001:518 JLINK_WriteReg(R9, 0x20000188)  returns 0x00 (0000ms, 0963ms total)
T0CE8 001:518 JLINK_WriteReg(R10, 0x00000000)  returns 0x00 (0000ms, 0963ms total)
T0CE8 001:518 JLINK_WriteReg(R11, 0x00000000)  returns 0x00 (0000ms, 0963ms total)
T0CE8 001:518 JLINK_WriteReg(R12, 0x00000000)  returns 0x00 (0000ms, 0963ms total)
T0CE8 001:518 JLINK_WriteReg(R13, 0x20000800)  returns 0x00 (0000ms, 0963ms total)
T0CE8 001:518 JLINK_WriteReg(R14, 0x20000001)  returns 0x00 (0000ms, 0963ms total)
T0CE8 001:518 JLINK_WriteReg(R15, 0x200000AE)  returns 0x00 (0000ms, 0963ms total)
T0CE8 001:518 JLINK_WriteReg(XPSR, 0x01000000)  returns 0x00 (0000ms, 0963ms total)
T0CE8 001:518 JLINK_WriteReg(MSP, 0x20000800)  returns 0x00 (0000ms, 0963ms total)
T0CE8 001:518 JLINK_WriteReg(PSP, 0x20000800)  returns 0x00 (0000ms, 0963ms total)
T0CE8 001:518 JLINK_WriteReg(CFBP, 0x00000000)  returns 0x00 (0000ms, 0963ms total)
T0CE8 001:518 JLINK_SetBPEx(Addr = 0x20000000, Type = 0xFFFFFFF2)  returns 0x00000013 (0000ms, 0963ms total)
T0CE8 001:518 JLINK_Go() (0002ms, 0965ms total)
T0CE8 001:521 JLINK_IsHalted()  returns FALSE (0001ms, 0967ms total)
T0CE8 001:572 JLINK_IsHalted() -- CPU_ReadMem(2 bytes @ 0x20000000)  returns TRUE (0005ms, 0971ms total)
T0CE8 001:577 JLINK_ReadReg(R15)  returns 0x20000000 (0000ms, 0966ms total)
T0CE8 001:577 JLINK_ClrBPEx(BPHandle = 0x00000013)  returns 0x00 (0000ms, 0966ms total)
T0CE8 001:577 JLINK_ReadReg(R0)  returns 0x00000000 (0000ms, 0966ms total)
T0CE8 001:577 JLINK_WriteReg(R0, 0x00001200)  returns 0x00 (0000ms, 0966ms total)
T0CE8 001:577 JLINK_WriteReg(R1, 0x00000200)  returns 0x00 (0000ms, 0966ms total)
T0CE8 001:577 JLINK_WriteReg(R2, 0x000000FF)  returns 0x00 (0000ms, 0966ms total)
T0CE8 001:577 JLINK_WriteReg(R3, 0x00000000)  returns 0x00 (0000ms, 0966ms total)
T0CE8 001:577 JLINK_WriteReg(R4, 0x00000000)  returns 0x00 (0000ms, 0966ms total)
T0CE8 001:577 JLINK_WriteReg(R5, 0x00000000)  returns 0x00 (0000ms, 0966ms total)
T0CE8 001:577 JLINK_WriteReg(R6, 0x00000000)  returns 0x00 (0000ms, 0966ms total)
T0CE8 001:577 JLINK_WriteReg(R7, 0x00000000)  returns 0x00 (0000ms, 0966ms total)
T0CE8 001:577 JLINK_WriteReg(R8, 0x00000000)  returns 0x00 (0000ms, 0966ms total)
T0CE8 001:577 JLINK_WriteReg(R9, 0x20000188)  returns 0x00 (0000ms, 0966ms total)
T0CE8 001:577 JLINK_WriteReg(R10, 0x00000000)  returns 0x00 (0000ms, 0966ms total)
T0CE8 001:577 JLINK_WriteReg(R11, 0x00000000)  returns 0x00 (0000ms, 0966ms total)
T0CE8 001:577 JLINK_WriteReg(R12, 0x00000000)  returns 0x00 (0001ms, 0967ms total)
T0CE8 001:578 JLINK_WriteReg(R13, 0x20000800)  returns 0x00 (0000ms, 0967ms total)
